T6D44 000:004.056   SEGGER J-Link V6.98 Log File
T6D44 000:004.149   DLL Compiled: Mar  2 2021 15:48:59
T6D44 000:004.154   Logging started @ 2025-03-24 01:17
T6D44 000:004.158 - 4.160ms
T6D44 000:004.167 JLINK_SetWarnOutHandler(...)
T6D44 000:004.172 - 0.007ms
T6D44 000:004.177 JLINK_OpenEx(...)
T6D44 000:005.663   Firmware: J-Link V9 compiled May  7 2021 16:26:12
T6D44 000:006.128   Firmware: J-Link V9 compiled May  7 2021 16:26:12
T6D44 000:006.275   Decompressing FW timestamp took 112 us
T6D44 000:013.699   Hardware: V9.40
T6D44 000:013.718   S/N: 69409508
T6D44 000:013.724   OEM: SEGGER
T6D44 000:013.730   Feature(s): RDI, GDB, FlashDL, FlashBP, JFlash
T6D44 000:015.235   TELNET listener socket opened on port 19021
T6D44 000:015.310   WEBSRV Starting webserver
T6D44 000:015.407   WEBSRV Webserver running on local port 19080
T6D44 000:015.415 - 11.240ms returns "O.K."
T6D44 000:015.425 JLINK_GetEmuCaps()
T6D44 000:015.430 - 0.006ms returns 0xB9FF7BBF
T6D44 000:015.437 JLINK_TIF_GetAvailable(...)
T6D44 000:015.608 - 0.175ms
T6D44 000:015.617 JLINK_SetErrorOutHandler(...)
T6D44 000:015.622 - 0.007ms
T6D44 000:015.641 JLINK_ExecCommand("ProjectFile = "G:\MCU+RTOS+LVGL\stm32F411CEU6_HAL_project\OTA\04_Software\MDK-ARM\JLinkSettings.ini"", ...). 
T6D44 000:022.188   Ref file found at: D:\work_applications\Keil\Core\ARM\Segger\JLinkDevices.ref
T6D44 000:022.281   XML referenced by ref file: D:\work_applications\JLink\JLinkDevices.xml
T6D44 000:022.721   D:\work_applications\JLink\JLinkDevices.xml evaluated successfully.
T6D44 000:029.464 - 13.832ms returns 0x00
T6D44 000:035.209 JLINK_ExecCommand("Device = STM32F411CEUx", ...). 
T6D44 000:038.188   Device "STM32F411CE" selected.
T6D44 000:038.553 - 3.328ms returns 0x00
T6D44 000:038.571 JLINK_GetHardwareVersion()
T6D44 000:038.576 - 0.007ms returns 94000
T6D44 000:038.584 JLINK_GetDLLVersion()
T6D44 000:038.588 - 0.006ms returns 69800
T6D44 000:038.594 JLINK_GetOEMString(...)
T6D44 000:038.605 JLINK_GetFirmwareString(...)
T6D44 000:038.609 - 0.006ms
T6D44 000:043.638 JLINK_GetDLLVersion()
T6D44 000:043.651 - 0.015ms returns 69800
T6D44 000:043.657 JLINK_GetCompileDateTime()
T6D44 000:043.662 - 0.006ms
T6D44 000:044.993 JLINK_GetFirmwareString(...)
T6D44 000:045.006 - 0.015ms
T6D44 000:046.608 JLINK_GetHardwareVersion()
T6D44 000:046.621 - 0.015ms returns 94000
T6D44 000:047.955 JLINK_GetSN()
T6D44 000:047.967 - 0.014ms returns 69409508
T6D44 000:049.625 JLINK_GetOEMString(...)
T6D44 000:052.959 JLINK_TIF_Select(JLINKARM_TIF_SWD)
T6D44 000:053.688 - 0.734ms returns 0x00
T6D44 000:053.698 JLINK_HasError()
T6D44 000:053.713 JLINK_SetSpeed(5000)
T6D44 000:053.809 - 0.098ms
T6D44 000:053.816 JLINK_GetId()
T6D44 000:056.260   Found SW-DP with ID 0x2BA01477
T6D44 000:073.223   Found SW-DP with ID 0x2BA01477
T6D44 000:077.735   DPIDR: 0x2BA01477
T6D44 000:079.019   Scanning AP map to find all available APs
T6D44 000:081.010   AP[1]: Stopped AP scan as end of AP map has been reached
T6D44 000:082.600   AP[0]: AHB-AP (IDR: 0x24770011)
T6D44 000:083.918   Iterating through AP map to find AHB-AP to use
T6D44 000:086.362   AP[0]: Core found
T6D44 000:087.697   AP[0]: AHB-AP ROM base: 0xE00FF000
T6D44 000:089.567   CPUID register: 0x410FC241. Implementer code: 0x41 (ARM)
T6D44 000:090.862   Found Cortex-M4 r0p1, Little endian.
T6D44 000:193.563   -- Max. mem block: 0x00010C40
T6D44 000:194.007   CPU_ReadMem(4 bytes @ 0xE000EDF0)
T6D44 000:194.491   CPU_ReadMem(4 bytes @ 0xE0002000)
T6D44 000:199.821   FPUnit: 6 code (BP) slots and 2 literal slots
T6D44 000:199.852   CPU_ReadMem(4 bytes @ 0xE000EDFC)
T6D44 000:200.266   CPU_WriteMem(4 bytes @ 0xE000EDFC)
T6D44 000:200.689   CPU_ReadMem(4 bytes @ 0xE0001000)
T6D44 000:201.184   CPU_WriteMem(4 bytes @ 0xE0001000)
T6D44 000:201.580   CPU_ReadMem(4 bytes @ 0xE000ED88)
T6D44 000:202.067   CPU_WriteMem(4 bytes @ 0xE000ED88)
T6D44 000:202.526   CPU_ReadMem(4 bytes @ 0xE000ED88)
T6D44 000:202.899   CPU_WriteMem(4 bytes @ 0xE000ED88)
T6D44 000:205.771   CoreSight components:
T6D44 000:207.365   ROMTbl[0] @ E00FF000
T6D44 000:207.380   CPU_ReadMem(64 bytes @ 0xE00FF000)
T6D44 000:208.104   CPU_ReadMem(32 bytes @ 0xE000EFE0)
T6D44 000:209.870   ROMTbl[0][0]: E000E000, CID: B105E00D, PID: 000BB00C SCS-M7
T6D44 000:209.883   CPU_ReadMem(32 bytes @ 0xE0001FE0)
T6D44 000:211.722   ROMTbl[0][1]: E0001000, CID: B105E00D, PID: 003BB002 DWT
T6D44 000:211.735   CPU_ReadMem(32 bytes @ 0xE0002FE0)
T6D44 000:213.772   ROMTbl[0][2]: E0002000, CID: B105E00D, PID: 002BB003 FPB
T6D44 000:213.786   CPU_ReadMem(32 bytes @ 0xE0000FE0)
T6D44 000:216.179   ROMTbl[0][3]: E0000000, CID: B105E00D, PID: 003BB001 ITM
T6D44 000:216.197   CPU_ReadMem(32 bytes @ 0xE0040FE0)
T6D44 000:218.293   ROMTbl[0][4]: E0040000, CID: B105900D, PID: 000BB9A1 TPIU
T6D44 000:218.309   CPU_ReadMem(32 bytes @ 0xE0041FE0)
T6D44 000:220.228   ROMTbl[0][5]: E0041000, CID: B105900D, PID: 000BB925 ETM
T6D44 000:220.485 - 166.673ms returns 0x2BA01477
T6D44 000:220.500 JLINK_GetDLLVersion()
T6D44 000:220.504 - 0.006ms returns 69800
T6D44 000:220.570 JLINK_CORE_GetFound()
T6D44 000:220.575 - 0.007ms returns 0xE0000FF
T6D44 000:220.586 JLINK_GetDebugInfo(0x100 = JLINKARM_ROM_TABLE_ADDR_INDEX)
T6D44 000:220.591   Value=0xE00FF000
T6D44 000:220.597 - 0.013ms returns 0
T6D44 000:221.939 JLINK_GetDebugInfo(0x100 = JLINKARM_ROM_TABLE_ADDR_INDEX)
T6D44 000:221.950   Value=0xE00FF000
T6D44 000:221.956 - 0.018ms returns 0
T6D44 000:221.961 JLINK_GetDebugInfo(0x101 = JLINKARM_DEBUG_INFO_ETM_ADDR_INDEX)
T6D44 000:221.966   Value=0xE0041000
T6D44 000:221.971 - 0.012ms returns 0
T6D44 000:221.977 JLINK_ReadMemEx(0xE0041FD0, 0x20 Bytes, Flags = 0x02000004)
T6D44 000:221.997   CPU_ReadMem(32 bytes @ 0xE0041FD0)
T6D44 000:222.478   Data:  04 00 00 00 00 00 00 00 00 00 00 00 00 00 00 00 ...
T6D44 000:222.485 - 0.509ms returns 32 (0x20)
T6D44 000:222.491 JLINK_GetDebugInfo(0x102 = JLINKARM_DEBUG_INFO_MTB_ADDR_INDEX)
T6D44 000:222.495   Value=0x00000000
T6D44 000:222.501 - 0.012ms returns 0
T6D44 000:222.506 JLINK_GetDebugInfo(0x103 = JLINKARM_DEBUG_INFO_TPIU_ADDR_INDEX)
T6D44 000:222.510   Value=0xE0040000
T6D44 000:222.516 - 0.011ms returns 0
T6D44 000:222.521 JLINK_GetDebugInfo(0x104 = JLINKARM_DEBUG_INFO_ITM_ADDR_INDEX)
T6D44 000:222.525   Value=0xE0000000
T6D44 000:222.531 - 0.011ms returns 0
T6D44 000:222.536 JLINK_GetDebugInfo(0x105 = JLINKARM_DEBUG_INFO_DWT_ADDR_INDEX)
T6D44 000:222.540   Value=0xE0001000
T6D44 000:222.546 - 0.012ms returns 0
T6D44 000:222.551 JLINK_GetDebugInfo(0x106 = JLINKARM_DEBUG_INFO_FPB_ADDR_INDEX)
T6D44 000:222.555   Value=0xE0002000
T6D44 000:222.560 - 0.011ms returns 0
T6D44 000:222.565 JLINK_GetDebugInfo(0x107 = JLINKARM_DEBUG_INFO_NVIC_ADDR_INDEX)
T6D44 000:222.570   Value=0xE000E000
T6D44 000:222.575 - 0.011ms returns 0
T6D44 000:222.580 JLINK_GetDebugInfo(0x10C = JLINKARM_DEBUG_INFO_DBG_ADDR_INDEX)
T6D44 000:222.584   Value=0xE000EDF0
T6D44 000:222.590 - 0.011ms returns 0
T6D44 000:222.595 JLINK_GetDebugInfo(0x01 = Unknown)
T6D44 000:222.600   Value=0x00000001
T6D44 000:222.605 - 0.012ms returns 0
T6D44 000:222.610 JLINK_ReadMemU32(0xE000ED00, 0x1 Items)
T6D44 000:222.617   CPU_ReadMem(4 bytes @ 0xE000ED00)
T6D44 000:222.900   Data:  41 C2 0F 41
T6D44 000:222.907   Debug reg: CPUID
T6D44 000:222.912 - 0.304ms returns 1 (0x1)
T6D44 000:222.918 JLINK_GetDebugInfo(0x10F = JLINKARM_DEBUG_INFO_HAS_CORTEX_M_SECURITY_EXT_INDEX)
T6D44 000:222.923   Value=0x00000000
T6D44 000:222.928 - 0.011ms returns 0
T6D44 000:222.934 JLINK_HasError()
T6D44 000:222.940 JLINK_SetResetType(JLINKARM_CM3_RESET_TYPE_NORMAL)
T6D44 000:222.944 - 0.006ms returns JLINKARM_CM3_RESET_TYPE_NORMAL
T6D44 000:222.949 JLINK_Reset()
T6D44 000:222.961   CPU is running
T6D44 000:222.968   CPU_WriteMem(4 bytes @ 0xE000EDF0)
T6D44 000:223.309   CPU is running
T6D44 000:223.316   CPU_WriteMem(4 bytes @ 0xE000EDFC)
T6D44 000:225.032   Reset: Halt core after reset via DEMCR.VC_CORERESET.
T6D44 000:226.816   Reset: Reset device via AIRCR.SYSRESETREQ.
T6D44 000:226.829   CPU is running
T6D44 000:226.837   CPU_WriteMem(4 bytes @ 0xE000ED0C)
T6D44 000:279.672   CPU_ReadMem(4 bytes @ 0xE000EDF0)
T6D44 000:280.107   CPU_ReadMem(4 bytes @ 0xE000EDF0)
T6D44 000:280.486   CPU is running
T6D44 000:280.501   CPU_WriteMem(4 bytes @ 0xE000EDF0)
T6D44 000:280.834   CPU is running
T6D44 000:280.845   CPU_WriteMem(4 bytes @ 0xE000EDFC)
T6D44 000:287.075   CPU_ReadMem(4 bytes @ 0xE000EDF0)
T6D44 000:289.962   CPU_WriteMem(4 bytes @ 0xE0002000)
T6D44 000:290.328   CPU_ReadMem(4 bytes @ 0xE000EDFC)
T6D44 000:290.645   CPU_ReadMem(4 bytes @ 0xE0001000)
T6D44 000:291.048 - 68.103ms
T6D44 000:291.066 JLINK_Halt()
T6D44 000:291.075 - 0.011ms returns 0x00
T6D44 000:291.144 JLINK_ReadMemU32(0xE000EDF0, 0x1 Items)
T6D44 000:291.169   CPU_ReadMem(4 bytes @ 0xE000EDF0)
T6D44 000:291.512   Data:  03 00 03 00
T6D44 000:291.525   Debug reg: DHCSR
T6D44 000:291.534 - 0.392ms returns 1 (0x1)
T6D44 000:291.543 JLINK_WriteU32_64(0xE000EDF0, 0xA05F0003)
T6D44 000:291.552   Debug reg: DHCSR
T6D44 000:291.807   CPU_WriteMem(4 bytes @ 0xE000EDF0)
T6D44 000:292.159 - 0.627ms returns 0 (0x00000000)
T6D44 000:292.178 JLINK_WriteU32_64(0xE000EDFC, 0x01000000)
T6D44 000:292.185   Debug reg: DEMCR
T6D44 000:292.201   CPU_WriteMem(4 bytes @ 0xE000EDFC)
T6D44 000:292.587 - 0.415ms returns 0 (0x00000000)
T6D44 000:302.137 JLINK_GetHWStatus(...)
T6D44 000:302.346 - 0.217ms returns 0
T6D44 000:307.324 JLINK_GetNumBPUnits(Type = 0xFFFFFF00)
T6D44 000:307.336 - 0.014ms returns 0x06
T6D44 000:307.342 JLINK_GetNumBPUnits(Type = 0xF0)
T6D44 000:307.346 - 0.006ms returns 0x2000
T6D44 000:307.351 JLINK_GetNumWPUnits()
T6D44 000:307.355 - 0.006ms returns 4
T6D44 000:312.332 JLINK_GetSpeed()
T6D44 000:312.344 - 0.013ms returns 4000
T6D44 000:317.229 JLINK_ReadMemU32(0xE000E004, 0x1 Items)
T6D44 000:317.252   CPU_ReadMem(4 bytes @ 0xE000E004)
T6D44 000:317.555   Data:  02 00 00 00
T6D44 000:317.568 - 0.341ms returns 1 (0x1)
T6D44 000:317.576 JLINK_ReadMemU32(0xE000E004, 0x1 Items)
T6D44 000:317.584   CPU_ReadMem(4 bytes @ 0xE000E004)
T6D44 000:317.937   Data:  02 00 00 00
T6D44 000:317.947 - 0.373ms returns 1 (0x1)
T6D44 000:317.954 JLINK_WriteMemEx(0xE0001000, 0x0000001C Bytes, Flags = 0x02000004)
T6D44 000:317.959   Data:  01 00 00 00 00 00 00 00 00 00 00 00 00 00 00 00 ...
T6D44 000:317.970   CPU_WriteMem(28 bytes @ 0xE0001000)
T6D44 000:318.424 - 0.474ms returns 0x1C
T6D44 000:318.436 JLINK_Halt()
T6D44 000:318.441 - 0.006ms returns 0x00
T6D44 000:318.446 JLINK_IsHalted()
T6D44 000:318.450 - 0.006ms returns TRUE
T6D44 000:321.051 JLINK_WriteMem(0x20000000, 0x184 Bytes, ...)
T6D44 000:321.060   Data:  00 BE 0A E0 0D 78 2D 06 68 40 08 24 40 00 00 D3 ...
T6D44 000:321.252   CPU_WriteMem(388 bytes @ 0x20000000)
T6D44 000:323.506 - 2.462ms returns 0x184
T6D44 000:323.541 JLINK_HasError()
T6D44 000:323.547 JLINK_WriteReg(R0, 0x08000000)
T6D44 000:323.555 - 0.009ms returns 0
T6D44 000:323.560 JLINK_WriteReg(R1, 0x00B71B00)
T6D44 000:323.564 - 0.006ms returns 0
T6D44 000:323.569 JLINK_WriteReg(R2, 0x00000001)
T6D44 000:323.574 - 0.006ms returns 0
T6D44 000:323.579 JLINK_WriteReg(R3, 0x00000000)
T6D44 000:323.583 - 0.006ms returns 0
T6D44 000:323.588 JLINK_WriteReg(R4, 0x00000000)
T6D44 000:323.592 - 0.006ms returns 0
T6D44 000:323.597 JLINK_WriteReg(R5, 0x00000000)
T6D44 000:323.601 - 0.006ms returns 0
T6D44 000:323.606 JLINK_WriteReg(R6, 0x00000000)
T6D44 000:323.611 - 0.006ms returns 0
T6D44 000:323.615 JLINK_WriteReg(R7, 0x00000000)
T6D44 000:323.620 - 0.006ms returns 0
T6D44 000:323.625 JLINK_WriteReg(R8, 0x00000000)
T6D44 000:323.636 - 0.013ms returns 0
T6D44 000:323.641 JLINK_WriteReg(R9, 0x20000180)
T6D44 000:323.645 - 0.006ms returns 0
T6D44 000:323.651 JLINK_WriteReg(R10, 0x00000000)
T6D44 000:323.655 - 0.006ms returns 0
T6D44 000:323.660 JLINK_WriteReg(R11, 0x00000000)
T6D44 000:323.664 - 0.006ms returns 0
T6D44 000:323.669 JLINK_WriteReg(R12, 0x00000000)
T6D44 000:323.673 - 0.006ms returns 0
T6D44 000:323.678 JLINK_WriteReg(R13 (SP), 0x20001000)
T6D44 000:323.683 - 0.006ms returns 0
T6D44 000:323.690 JLINK_WriteReg(R14, 0x20000001)
T6D44 000:323.695 - 0.007ms returns 0
T6D44 000:323.700 JLINK_WriteReg(R15 (PC), 0x20000054)
T6D44 000:323.704 - 0.006ms returns 0
T6D44 000:323.709 JLINK_WriteReg(XPSR, 0x01000000)
T6D44 000:323.713 - 0.006ms returns 0
T6D44 000:323.719 JLINK_WriteReg(MSP, 0x20001000)
T6D44 000:323.723 - 0.006ms returns 0
T6D44 000:323.728 JLINK_WriteReg(PSP, 0x20001000)
T6D44 000:323.732 - 0.006ms returns 0
T6D44 000:323.737 JLINK_WriteReg(CFBP, 0x00000000)
T6D44 000:323.741 - 0.006ms returns 0
T6D44 000:323.746 JLINK_SetBPEx(Addr = 0x20000000, Type = 0xFFFFFFF2)
T6D44 000:323.757   CPU_ReadMem(2 bytes @ 0x20000000)
T6D44 000:324.035 - 0.291ms returns 0x00000001
T6D44 000:324.042 JLINK_Go()
T6D44 000:324.048   CPU_WriteMem(2 bytes @ 0x20000000)
T6D44 000:324.441   CPU_ReadMem(4 bytes @ 0xE0001000)
T6D44 000:324.750   CPU_WriteMem(4 bytes @ 0xE0002008)
T6D44 000:324.757   CPU_WriteMem(4 bytes @ 0xE000200C)
T6D44 000:324.764   CPU_WriteMem(4 bytes @ 0xE0002010)
T6D44 000:324.770   CPU_WriteMem(4 bytes @ 0xE0002014)
T6D44 000:324.776   CPU_WriteMem(4 bytes @ 0xE0002018)
T6D44 000:324.782   CPU_WriteMem(4 bytes @ 0xE000201C)
T6D44 000:326.118   CPU_WriteMem(4 bytes @ 0xE0001004)
T6D44 000:329.095 - 5.059ms
T6D44 000:329.106 JLINK_IsHalted()
T6D44 000:331.660   CPU_ReadMem(2 bytes @ 0x20000000)
T6D44 000:332.116 - 3.020ms returns TRUE
T6D44 000:332.134 JLINK_ReadReg(R15 (PC))
T6D44 000:332.142 - 0.011ms returns 0x20000000
T6D44 000:332.152 JLINK_ClrBPEx(BPHandle = 0x00000001)
T6D44 000:332.158 - 0.008ms returns 0x00
T6D44 000:332.164 JLINK_ReadReg(R0)
T6D44 000:332.169 - 0.007ms returns 0x00000000
T6D44 000:332.572 JLINK_HasError()
T6D44 000:332.583 JLINK_WriteReg(R0, 0x08000000)
T6D44 000:332.589 - 0.008ms returns 0
T6D44 000:332.594 JLINK_WriteReg(R1, 0x00004000)
T6D44 000:332.599 - 0.006ms returns 0
T6D44 000:332.604 JLINK_WriteReg(R2, 0x000000FF)
T6D44 000:332.608 - 0.006ms returns 0
T6D44 000:332.613 JLINK_WriteReg(R3, 0x00000000)
T6D44 000:332.617 - 0.006ms returns 0
T6D44 000:332.623 JLINK_WriteReg(R4, 0x00000000)
T6D44 000:332.627 - 0.006ms returns 0
T6D44 000:332.632 JLINK_WriteReg(R5, 0x00000000)
T6D44 000:332.636 - 0.006ms returns 0
T6D44 000:332.641 JLINK_WriteReg(R6, 0x00000000)
T6D44 000:332.645 - 0.006ms returns 0
T6D44 000:332.650 JLINK_WriteReg(R7, 0x00000000)
T6D44 000:332.654 - 0.006ms returns 0
T6D44 000:332.659 JLINK_WriteReg(R8, 0x00000000)
T6D44 000:332.663 - 0.006ms returns 0
T6D44 000:332.668 JLINK_WriteReg(R9, 0x20000180)
T6D44 000:332.673 - 0.006ms returns 0
T6D44 000:332.678 JLINK_WriteReg(R10, 0x00000000)
T6D44 000:332.682 - 0.006ms returns 0
T6D44 000:332.687 JLINK_WriteReg(R11, 0x00000000)
T6D44 000:332.691 - 0.006ms returns 0
T6D44 000:332.696 JLINK_WriteReg(R12, 0x00000000)
T6D44 000:332.700 - 0.006ms returns 0
T6D44 000:332.705 JLINK_WriteReg(R13 (SP), 0x20001000)
T6D44 000:332.710 - 0.006ms returns 0
T6D44 000:332.715 JLINK_WriteReg(R14, 0x20000001)
T6D44 000:332.719 - 0.006ms returns 0
T6D44 000:332.724 JLINK_WriteReg(R15 (PC), 0x20000020)
T6D44 000:332.728 - 0.006ms returns 0
T6D44 000:332.733 JLINK_WriteReg(XPSR, 0x01000000)
T6D44 000:332.738 - 0.006ms returns 0
T6D44 000:332.743 JLINK_WriteReg(MSP, 0x20001000)
T6D44 000:332.747 - 0.006ms returns 0
T6D44 000:332.752 JLINK_WriteReg(PSP, 0x20001000)
T6D44 000:332.756 - 0.006ms returns 0
T6D44 000:332.761 JLINK_WriteReg(CFBP, 0x00000000)
T6D44 000:332.765 - 0.006ms returns 0
T6D44 000:332.770 JLINK_SetBPEx(Addr = 0x20000000, Type = 0xFFFFFFF2)
T6D44 000:332.775 - 0.007ms returns 0x00000002
T6D44 000:332.780 JLINK_Go()
T6D44 000:332.789   CPU_ReadMem(4 bytes @ 0xE0001000)
T6D44 000:335.753 - 2.979ms
T6D44 000:335.764 JLINK_IsHalted()
T6D44 000:338.314   CPU_ReadMem(2 bytes @ 0x20000000)
T6D44 000:338.659 - 2.897ms returns TRUE
T6D44 000:338.666 JLINK_ReadReg(R15 (PC))
T6D44 000:338.672 - 0.007ms returns 0x20000000
T6D44 000:338.677 JLINK_ClrBPEx(BPHandle = 0x00000002)
T6D44 000:338.682 - 0.006ms returns 0x00
T6D44 000:338.687 JLINK_ReadReg(R0)
T6D44 000:338.722 - 0.036ms returns 0x00000001
T6D44 000:338.727 JLINK_HasError()
T6D44 000:338.733 JLINK_WriteReg(R0, 0x08000000)
T6D44 000:338.738 - 0.006ms returns 0
T6D44 000:338.743 JLINK_WriteReg(R1, 0x00004000)
T6D44 000:338.747 - 0.006ms returns 0
T6D44 000:338.752 JLINK_WriteReg(R2, 0x000000FF)
T6D44 000:338.756 - 0.006ms returns 0
T6D44 000:338.761 JLINK_WriteReg(R3, 0x00000000)
T6D44 000:338.766 - 0.006ms returns 0
T6D44 000:338.771 JLINK_WriteReg(R4, 0x00000000)
T6D44 000:338.775 - 0.006ms returns 0
T6D44 000:338.780 JLINK_WriteReg(R5, 0x00000000)
T6D44 000:338.784 - 0.006ms returns 0
T6D44 000:338.789 JLINK_WriteReg(R6, 0x00000000)
T6D44 000:338.793 - 0.006ms returns 0
T6D44 000:338.798 JLINK_WriteReg(R7, 0x00000000)
T6D44 000:338.802 - 0.006ms returns 0
T6D44 000:338.807 JLINK_WriteReg(R8, 0x00000000)
T6D44 000:338.812 - 0.006ms returns 0
T6D44 000:338.817 JLINK_WriteReg(R9, 0x20000180)
T6D44 000:338.821 - 0.006ms returns 0
T6D44 000:338.826 JLINK_WriteReg(R10, 0x00000000)
T6D44 000:338.830 - 0.006ms returns 0
T6D44 000:338.835 JLINK_WriteReg(R11, 0x00000000)
T6D44 000:338.839 - 0.006ms returns 0
T6D44 000:338.844 JLINK_WriteReg(R12, 0x00000000)
T6D44 000:338.848 - 0.006ms returns 0
T6D44 000:338.853 JLINK_WriteReg(R13 (SP), 0x20001000)
T6D44 000:338.858 - 0.006ms returns 0
T6D44 000:338.863 JLINK_WriteReg(R14, 0x20000001)
T6D44 000:338.867 - 0.006ms returns 0
T6D44 000:338.872 JLINK_WriteReg(R15 (PC), 0x200000C0)
T6D44 000:338.877 - 0.006ms returns 0
T6D44 000:338.882 JLINK_WriteReg(XPSR, 0x01000000)
T6D44 000:338.886 - 0.006ms returns 0
T6D44 000:338.891 JLINK_WriteReg(MSP, 0x20001000)
T6D44 000:338.895 - 0.006ms returns 0
T6D44 000:338.900 JLINK_WriteReg(PSP, 0x20001000)
T6D44 000:338.904 - 0.006ms returns 0
T6D44 000:338.909 JLINK_WriteReg(CFBP, 0x00000000)
T6D44 000:338.914 - 0.006ms returns 0
T6D44 000:338.919 JLINK_SetBPEx(Addr = 0x20000000, Type = 0xFFFFFFF2)
T6D44 000:338.924 - 0.006ms returns 0x00000003
T6D44 000:338.929 JLINK_Go()
T6D44 000:338.936   CPU_ReadMem(4 bytes @ 0xE0001000)
T6D44 000:341.970 - 3.046ms
T6D44 000:341.980 JLINK_IsHalted()
T6D44 000:342.343 - 0.366ms returns FALSE
T6D44 000:342.350 JLINK_HasError()
T6D44 000:427.117 JLINK_IsHalted()
T6D44 000:427.458 - 0.344ms returns FALSE
T6D44 000:427.467 JLINK_HasError()
T6D44 000:431.118 JLINK_IsHalted()
T6D44 000:431.415 - 0.300ms returns FALSE
T6D44 000:431.424 JLINK_HasError()
T6D44 000:437.132 JLINK_IsHalted()
T6D44 000:437.515 - 0.390ms returns FALSE
T6D44 000:437.528 JLINK_HasError()
T6D44 000:462.255 JLINK_IsHalted()
T6D44 000:462.566 - 0.320ms returns FALSE
T6D44 000:462.582 JLINK_HasError()
T6D44 000:506.796 JLINK_IsHalted()
T6D44 000:507.175 - 0.408ms returns FALSE
T6D44 000:507.227 JLINK_HasError()
T6D44 000:511.662 JLINK_IsHalted()
T6D44 000:511.962 - 0.303ms returns FALSE
T6D44 000:511.970 JLINK_HasError()
T6D44 000:517.186 JLINK_IsHalted()
T6D44 000:517.764 - 0.581ms returns FALSE
T6D44 000:517.773 JLINK_HasError()
T6D44 000:523.197 JLINK_IsHalted()
T6D44 000:523.561 - 0.371ms returns FALSE
T6D44 000:523.575 JLINK_HasError()
T6D44 000:527.204 JLINK_IsHalted()
T6D44 000:527.560 - 0.363ms returns FALSE
T6D44 000:527.573 JLINK_HasError()
T6D44 000:530.560 JLINK_IsHalted()
T6D44 000:530.858 - 0.301ms returns FALSE
T6D44 000:530.866 JLINK_HasError()
T6D44 000:535.071 JLINK_IsHalted()
T6D44 000:535.418 - 0.351ms returns FALSE
T6D44 000:535.427 JLINK_HasError()
T6D44 000:538.071 JLINK_IsHalted()
T6D44 000:538.451 - 0.384ms returns FALSE
T6D44 000:538.460 JLINK_HasError()
T6D44 000:541.069 JLINK_IsHalted()
T6D44 000:541.370 - 0.306ms returns FALSE
T6D44 000:541.381 JLINK_HasError()
T6D44 000:545.982 JLINK_IsHalted()
T6D44 000:546.290 - 0.310ms returns FALSE
T6D44 000:546.297 JLINK_HasError()
T6D44 000:548.487 JLINK_IsHalted()
T6D44 000:548.931 - 0.448ms returns FALSE
T6D44 000:548.941 JLINK_HasError()
T6D44 000:556.155 JLINK_IsHalted()
T6D44 000:556.481 - 0.330ms returns FALSE
T6D44 000:556.490 JLINK_HasError()
T6D44 000:562.156 JLINK_IsHalted()
T6D44 000:562.571 - 0.420ms returns FALSE
T6D44 000:562.582 JLINK_HasError()
T6D44 000:563.964 JLINK_IsHalted()
T6D44 000:564.354 - 0.394ms returns FALSE
T6D44 000:564.363 JLINK_HasError()
T6D44 000:566.226 JLINK_IsHalted()
T6D44 000:566.559 - 0.335ms returns FALSE
T6D44 000:566.566 JLINK_HasError()
T6D44 000:569.226 JLINK_IsHalted()
T6D44 000:569.514 - 0.292ms returns FALSE
T6D44 000:569.522 JLINK_HasError()
T6D44 000:572.226 JLINK_IsHalted()
T6D44 000:572.557 - 0.333ms returns FALSE
T6D44 000:572.564 JLINK_HasError()
T6D44 000:575.282 JLINK_IsHalted()
T6D44 000:575.567 - 0.287ms returns FALSE
T6D44 000:575.574 JLINK_HasError()
T6D44 000:577.281 JLINK_IsHalted()
T6D44 000:577.620 - 0.341ms returns FALSE
T6D44 000:577.626 JLINK_HasError()
T6D44 000:579.289 JLINK_IsHalted()
T6D44 000:579.732 - 0.446ms returns FALSE
T6D44 000:579.742 JLINK_HasError()
T6D44 000:582.285 JLINK_IsHalted()
T6D44 000:582.642 - 0.366ms returns FALSE
T6D44 000:582.656 JLINK_HasError()
T6D44 000:585.344 JLINK_IsHalted()
T6D44 000:585.638 - 0.297ms returns FALSE
T6D44 000:585.646 JLINK_HasError()
T6D44 000:587.343 JLINK_IsHalted()
T6D44 000:587.685 - 0.345ms returns FALSE
T6D44 000:587.692 JLINK_HasError()
T6D44 000:590.356 JLINK_IsHalted()
T6D44 000:590.733 - 0.384ms returns FALSE
T6D44 000:590.746 JLINK_HasError()
T6D44 000:592.849 JLINK_IsHalted()
T6D44 000:593.266 - 0.426ms returns FALSE
T6D44 000:593.281 JLINK_HasError()
T6D44 000:595.356 JLINK_IsHalted()
T6D44 000:595.714 - 0.366ms returns FALSE
T6D44 000:595.728 JLINK_HasError()
T6D44 000:598.357 JLINK_IsHalted()
T6D44 000:598.696 - 0.347ms returns FALSE
T6D44 000:598.712 JLINK_HasError()
T6D44 000:601.356 JLINK_IsHalted()
T6D44 000:601.638 - 0.285ms returns FALSE
T6D44 000:601.646 JLINK_HasError()
T6D44 000:611.378 JLINK_IsHalted()
T6D44 000:611.946 - 0.576ms returns FALSE
T6D44 000:611.959 JLINK_HasError()
T6D44 000:634.790 JLINK_IsHalted()
T6D44 000:635.183 - 0.397ms returns FALSE
T6D44 000:635.193 JLINK_HasError()
T6D44 000:636.801 JLINK_IsHalted()
T6D44 000:637.139 - 0.347ms returns FALSE
T6D44 000:637.154 JLINK_HasError()
T6D44 000:640.813 JLINK_IsHalted()
T6D44 000:641.254 - 0.449ms returns FALSE
T6D44 000:641.268 JLINK_HasError()
T6D44 000:643.299 JLINK_IsHalted()
T6D44 000:643.662 - 0.366ms returns FALSE
T6D44 000:643.670 JLINK_HasError()
T6D44 000:646.325 JLINK_IsHalted()
T6D44 000:646.651 - 0.328ms returns FALSE
T6D44 000:646.658 JLINK_HasError()
T6D44 000:647.829 JLINK_IsHalted()
T6D44 000:648.161 - 0.339ms returns FALSE
T6D44 000:648.174 JLINK_HasError()
T6D44 000:649.833 JLINK_IsHalted()
T6D44 000:650.164 - 0.334ms returns FALSE
T6D44 000:650.172 JLINK_HasError()
T6D44 000:652.340 JLINK_IsHalted()
T6D44 000:652.637 - 0.300ms returns FALSE
T6D44 000:652.645 JLINK_HasError()
T6D44 000:653.847 JLINK_IsHalted()
T6D44 000:654.161 - 0.317ms returns FALSE
T6D44 000:654.169 JLINK_HasError()
T6D44 000:655.850 JLINK_IsHalted()
T6D44 000:656.127 - 0.280ms returns FALSE
T6D44 000:656.133 JLINK_HasError()
T6D44 000:657.851 JLINK_IsHalted()
T6D44 000:658.264 - 0.416ms returns FALSE
T6D44 000:658.273 JLINK_HasError()
T6D44 000:660.853 JLINK_IsHalted()
T6D44 000:661.140 - 0.290ms returns FALSE
T6D44 000:661.147 JLINK_HasError()
T6D44 000:662.353 JLINK_IsHalted()
T6D44 000:662.659 - 0.308ms returns FALSE
T6D44 000:662.666 JLINK_HasError()
T6D44 000:663.864 JLINK_IsHalted()
T6D44 000:664.263 - 0.402ms returns FALSE
T6D44 000:664.270 JLINK_HasError()
T6D44 000:665.868 JLINK_IsHalted()
T6D44 000:666.234 - 0.373ms returns FALSE
T6D44 000:666.247 JLINK_HasError()
T6D44 000:668.866 JLINK_IsHalted()
T6D44 000:669.233 - 0.370ms returns FALSE
T6D44 000:669.241 JLINK_HasError()
T6D44 000:670.866 JLINK_IsHalted()
T6D44 000:671.234 - 0.371ms returns FALSE
T6D44 000:671.242 JLINK_HasError()
T6D44 000:672.372 JLINK_IsHalted()
T6D44 000:672.663 - 0.295ms returns FALSE
T6D44 000:672.672 JLINK_HasError()
T6D44 000:673.887 JLINK_IsHalted()
T6D44 000:683.198   CPU_ReadMem(2 bytes @ 0x20000000)
T6D44 000:683.548 - 9.674ms returns TRUE
T6D44 000:683.576 JLINK_ReadReg(R15 (PC))
T6D44 000:683.590 - 0.018ms returns 0x20000000
T6D44 000:683.652 JLINK_ClrBPEx(BPHandle = 0x00000003)
T6D44 000:683.663 - 0.015ms returns 0x00
T6D44 000:683.675 JLINK_ReadReg(R0)
T6D44 000:683.683 - 0.011ms returns 0x00000000
T6D44 000:684.139 JLINK_HasError()
T6D44 000:684.154 JLINK_WriteReg(R0, 0x00000001)
T6D44 000:684.165 - 0.013ms returns 0
T6D44 000:684.174 JLINK_WriteReg(R1, 0x00004000)
T6D44 000:684.181 - 0.010ms returns 0
T6D44 000:684.190 JLINK_WriteReg(R2, 0x000000FF)
T6D44 000:684.197 - 0.010ms returns 0
T6D44 000:684.206 JLINK_WriteReg(R3, 0x00000000)
T6D44 000:684.213 - 0.010ms returns 0
T6D44 000:684.222 JLINK_WriteReg(R4, 0x00000000)
T6D44 000:684.229 - 0.010ms returns 0
T6D44 000:684.238 JLINK_WriteReg(R5, 0x00000000)
T6D44 000:684.245 - 0.010ms returns 0
T6D44 000:684.253 JLINK_WriteReg(R6, 0x00000000)
T6D44 000:684.261 - 0.010ms returns 0
T6D44 000:684.269 JLINK_WriteReg(R7, 0x00000000)
T6D44 000:684.276 - 0.010ms returns 0
T6D44 000:684.285 JLINK_WriteReg(R8, 0x00000000)
T6D44 000:684.293 - 0.011ms returns 0
T6D44 000:684.301 JLINK_WriteReg(R9, 0x20000180)
T6D44 000:684.308 - 0.010ms returns 0
T6D44 000:684.317 JLINK_WriteReg(R10, 0x00000000)
T6D44 000:684.324 - 0.011ms returns 0
T6D44 000:684.333 JLINK_WriteReg(R11, 0x00000000)
T6D44 000:684.340 - 0.010ms returns 0
T6D44 000:684.349 JLINK_WriteReg(R12, 0x00000000)
T6D44 000:684.356 - 0.010ms returns 0
T6D44 000:684.365 JLINK_WriteReg(R13 (SP), 0x20001000)
T6D44 000:684.372 - 0.011ms returns 0
T6D44 000:684.381 JLINK_WriteReg(R14, 0x20000001)
T6D44 000:684.389 - 0.011ms returns 0
T6D44 000:684.398 JLINK_WriteReg(R15 (PC), 0x20000086)
T6D44 000:684.405 - 0.010ms returns 0
T6D44 000:684.414 JLINK_WriteReg(XPSR, 0x01000000)
T6D44 000:684.421 - 0.010ms returns 0
T6D44 000:684.430 JLINK_WriteReg(MSP, 0x20001000)
T6D44 000:684.437 - 0.010ms returns 0
T6D44 000:684.445 JLINK_WriteReg(PSP, 0x20001000)
T6D44 000:684.453 - 0.010ms returns 0
T6D44 000:684.461 JLINK_WriteReg(CFBP, 0x00000000)
T6D44 000:684.468 - 0.010ms returns 0
T6D44 000:684.477 JLINK_SetBPEx(Addr = 0x20000000, Type = 0xFFFFFFF2)
T6D44 000:684.486 - 0.011ms returns 0x00000004
T6D44 000:684.495 JLINK_Go()
T6D44 000:684.510   CPU_ReadMem(4 bytes @ 0xE0001000)
T6D44 000:687.511 - 3.021ms
T6D44 000:687.524 JLINK_IsHalted()
T6D44 000:690.196   CPU_ReadMem(2 bytes @ 0x20000000)
T6D44 000:690.574 - 3.056ms returns TRUE
T6D44 000:690.589 JLINK_ReadReg(R15 (PC))
T6D44 000:690.600 - 0.014ms returns 0x20000000
T6D44 000:690.611 JLINK_ClrBPEx(BPHandle = 0x00000004)
T6D44 000:690.620 - 0.013ms returns 0x00
T6D44 000:690.630 JLINK_ReadReg(R0)
T6D44 000:690.639 - 0.012ms returns 0x00000000
T6D44 000:750.697 JLINK_WriteMem(0x20000000, 0x184 Bytes, ...)
T6D44 000:750.711   Data:  00 BE 0A E0 0D 78 2D 06 68 40 08 24 40 00 00 D3 ...
T6D44 000:750.730   CPU_WriteMem(388 bytes @ 0x20000000)
T6D44 000:753.102 - 2.418ms returns 0x184
T6D44 000:753.170 JLINK_HasError()
T6D44 000:753.179 JLINK_WriteReg(R0, 0x08000000)
T6D44 000:753.188 - 0.012ms returns 0
T6D44 000:753.197 JLINK_WriteReg(R1, 0x00B71B00)
T6D44 000:753.204 - 0.009ms returns 0
T6D44 000:753.211 JLINK_WriteReg(R2, 0x00000002)
T6D44 000:753.217 - 0.009ms returns 0
T6D44 000:753.225 JLINK_WriteReg(R3, 0x00000000)
T6D44 000:753.231 - 0.009ms returns 0
T6D44 000:753.239 JLINK_WriteReg(R4, 0x00000000)
T6D44 000:753.246 - 0.009ms returns 0
T6D44 000:753.253 JLINK_WriteReg(R5, 0x00000000)
T6D44 000:753.260 - 0.009ms returns 0
T6D44 000:753.268 JLINK_WriteReg(R6, 0x00000000)
T6D44 000:753.274 - 0.009ms returns 0
T6D44 000:753.282 JLINK_WriteReg(R7, 0x00000000)
T6D44 000:753.288 - 0.009ms returns 0
T6D44 000:753.296 JLINK_WriteReg(R8, 0x00000000)
T6D44 000:753.302 - 0.010ms returns 0
T6D44 000:753.310 JLINK_WriteReg(R9, 0x20000180)
T6D44 000:753.317 - 0.008ms returns 0
T6D44 000:753.323 JLINK_WriteReg(R10, 0x00000000)
T6D44 000:753.328 - 0.007ms returns 0
T6D44 000:753.334 JLINK_WriteReg(R11, 0x00000000)
T6D44 000:753.344 - 0.011ms returns 0
T6D44 000:753.350 JLINK_WriteReg(R12, 0x00000000)
T6D44 000:753.355 - 0.007ms returns 0
T6D44 000:753.361 JLINK_WriteReg(R13 (SP), 0x20001000)
T6D44 000:753.368 - 0.008ms returns 0
T6D44 000:753.374 JLINK_WriteReg(R14, 0x20000001)
T6D44 000:753.379 - 0.007ms returns 0
T6D44 000:753.385 JLINK_WriteReg(R15 (PC), 0x20000054)
T6D44 000:753.390 - 0.007ms returns 0
T6D44 000:753.396 JLINK_WriteReg(XPSR, 0x01000000)
T6D44 000:753.401 - 0.007ms returns 0
T6D44 000:753.408 JLINK_WriteReg(MSP, 0x20001000)
T6D44 000:753.413 - 0.007ms returns 0
T6D44 000:753.419 JLINK_WriteReg(PSP, 0x20001000)
T6D44 000:753.424 - 0.007ms returns 0
T6D44 000:753.430 JLINK_WriteReg(CFBP, 0x00000000)
T6D44 000:753.435 - 0.007ms returns 0
T6D44 000:753.441 JLINK_SetBPEx(Addr = 0x20000000, Type = 0xFFFFFFF2)
T6D44 000:753.452   CPU_ReadMem(2 bytes @ 0x20000000)
T6D44 000:753.796 - 0.358ms returns 0x00000005
T6D44 000:753.806 JLINK_Go()
T6D44 000:753.813   CPU_WriteMem(2 bytes @ 0x20000000)
T6D44 000:754.147   CPU_ReadMem(4 bytes @ 0xE0001000)
T6D44 000:757.088 - 3.291ms
T6D44 000:757.104 JLINK_IsHalted()
T6D44 000:759.687   CPU_ReadMem(2 bytes @ 0x20000000)
T6D44 000:760.060 - 2.959ms returns TRUE
T6D44 000:760.072 JLINK_ReadReg(R15 (PC))
T6D44 000:760.079 - 0.009ms returns 0x20000000
T6D44 000:760.127 JLINK_ClrBPEx(BPHandle = 0x00000005)
T6D44 000:760.134 - 0.008ms returns 0x00
T6D44 000:760.140 JLINK_ReadReg(R0)
T6D44 000:760.145 - 0.007ms returns 0x00000000
T6D44 000:760.381 JLINK_WriteMem(0x20000184, 0x27C Bytes, ...)
T6D44 000:760.389   Data:  C0 0B 00 20 E5 02 00 08 D5 20 00 08 CD 20 00 08 ...
T6D44 000:760.402   CPU_WriteMem(636 bytes @ 0x20000184)
T6D44 000:763.829 - 3.454ms returns 0x27C
T6D44 000:763.841 JLINK_WriteMem(0x20000400, 0x184 Bytes, ...)
T6D44 000:763.848   Data:  41 F0 80 01 63 29 00 F0 A8 83 73 29 00 F0 AD 83 ...
T6D44 000:763.861   CPU_WriteMem(388 bytes @ 0x20000400)
T6D44 000:766.293 - 2.459ms returns 0x184
T6D44 000:766.308 JLINK_HasError()
T6D44 000:766.316 JLINK_WriteReg(R0, 0x08000000)
T6D44 000:766.324 - 0.011ms returns 0
T6D44 000:766.332 JLINK_WriteReg(R1, 0x00000400)
T6D44 000:766.338 - 0.009ms returns 0
T6D44 000:766.345 JLINK_WriteReg(R2, 0x20000184)
T6D44 000:766.351 - 0.008ms returns 0
T6D44 000:766.358 JLINK_WriteReg(R3, 0x00000000)
T6D44 000:766.364 - 0.008ms returns 0
T6D44 000:766.371 JLINK_WriteReg(R4, 0x00000000)
T6D44 000:766.435 - 0.067ms returns 0
T6D44 000:766.443 JLINK_WriteReg(R5, 0x00000000)
T6D44 000:766.449 - 0.008ms returns 0
T6D44 000:766.456 JLINK_WriteReg(R6, 0x00000000)
T6D44 000:766.462 - 0.008ms returns 0
T6D44 000:766.469 JLINK_WriteReg(R7, 0x00000000)
T6D44 000:766.475 - 0.008ms returns 0
T6D44 000:766.482 JLINK_WriteReg(R8, 0x00000000)
T6D44 000:766.488 - 0.008ms returns 0
T6D44 000:766.495 JLINK_WriteReg(R9, 0x20000180)
T6D44 000:766.501 - 0.008ms returns 0
T6D44 000:766.508 JLINK_WriteReg(R10, 0x00000000)
T6D44 000:766.514 - 0.008ms returns 0
T6D44 000:766.521 JLINK_WriteReg(R11, 0x00000000)
T6D44 000:766.527 - 0.008ms returns 0
T6D44 000:766.534 JLINK_WriteReg(R12, 0x00000000)
T6D44 000:766.540 - 0.008ms returns 0
T6D44 000:766.547 JLINK_WriteReg(R13 (SP), 0x20001000)
T6D44 000:766.553 - 0.009ms returns 0
T6D44 000:766.561 JLINK_WriteReg(R14, 0x20000001)
T6D44 000:766.567 - 0.008ms returns 0
T6D44 000:766.574 JLINK_WriteReg(R15 (PC), 0x2000010C)
T6D44 000:766.580 - 0.009ms returns 0
T6D44 000:766.587 JLINK_WriteReg(XPSR, 0x01000000)
T6D44 000:766.593 - 0.008ms returns 0
T6D44 000:766.600 JLINK_WriteReg(MSP, 0x20001000)
T6D44 000:766.606 - 0.008ms returns 0
T6D44 000:766.613 JLINK_WriteReg(PSP, 0x20001000)
T6D44 000:766.619 - 0.008ms returns 0
T6D44 000:766.626 JLINK_WriteReg(CFBP, 0x00000000)
T6D44 000:766.632 - 0.008ms returns 0
T6D44 000:766.640 JLINK_SetBPEx(Addr = 0x20000000, Type = 0xFFFFFFF2)
T6D44 000:766.647 - 0.010ms returns 0x00000006
T6D44 000:766.654 JLINK_Go()
T6D44 000:766.665   CPU_ReadMem(4 bytes @ 0xE0001000)
T6D44 000:769.711 - 3.105ms
T6D44 000:769.767 JLINK_IsHalted()
T6D44 000:770.079 - 0.316ms returns FALSE
T6D44 000:770.087 JLINK_HasError()
T6D44 000:802.949 JLINK_IsHalted()
T6D44 000:805.517   CPU_ReadMem(2 bytes @ 0x20000000)
T6D44 000:805.833 - 2.887ms returns TRUE
T6D44 000:805.842 JLINK_ReadReg(R15 (PC))
T6D44 000:805.848 - 0.008ms returns 0x20000000
T6D44 000:805.854 JLINK_ClrBPEx(BPHandle = 0x00000006)
T6D44 000:805.858 - 0.006ms returns 0x00
T6D44 000:805.864 JLINK_ReadReg(R0)
T6D44 000:805.868 - 0.006ms returns 0x00000000
T6D44 000:806.453 JLINK_WriteMem(0x20000184, 0x27C Bytes, ...)
T6D44 000:806.466   Data:  00 28 F9 D1 A8 69 E6 18 C0 1A A8 61 28 6A 18 44 ...
T6D44 000:806.479   CPU_WriteMem(636 bytes @ 0x20000184)
T6D44 000:809.912 - 3.466ms returns 0x27C
T6D44 000:809.924 JLINK_WriteMem(0x20000400, 0x184 Bytes, ...)
T6D44 000:809.929   Data:  02 D8 20 35 46 F4 00 66 4A 46 29 46 20 46 26 60 ...
T6D44 000:809.939   CPU_WriteMem(388 bytes @ 0x20000400)
T6D44 000:812.321 - 2.402ms returns 0x184
T6D44 000:812.333 JLINK_HasError()
T6D44 000:812.370 JLINK_WriteReg(R0, 0x08000400)
T6D44 000:812.377 - 0.009ms returns 0
T6D44 000:812.382 JLINK_WriteReg(R1, 0x00000400)
T6D44 000:812.387 - 0.006ms returns 0
T6D44 000:812.392 JLINK_WriteReg(R2, 0x20000184)
T6D44 000:812.396 - 0.006ms returns 0
T6D44 000:812.401 JLINK_WriteReg(R3, 0x00000000)
T6D44 000:812.405 - 0.006ms returns 0
T6D44 000:812.411 JLINK_WriteReg(R4, 0x00000000)
T6D44 000:812.415 - 0.006ms returns 0
T6D44 000:812.420 JLINK_WriteReg(R5, 0x00000000)
T6D44 000:812.424 - 0.006ms returns 0
T6D44 000:812.429 JLINK_WriteReg(R6, 0x00000000)
T6D44 000:812.433 - 0.006ms returns 0
T6D44 000:812.438 JLINK_WriteReg(R7, 0x00000000)
T6D44 000:812.443 - 0.006ms returns 0
T6D44 000:812.448 JLINK_WriteReg(R8, 0x00000000)
T6D44 000:812.452 - 0.006ms returns 0
T6D44 000:812.457 JLINK_WriteReg(R9, 0x20000180)
T6D44 000:812.461 - 0.006ms returns 0
T6D44 000:812.466 JLINK_WriteReg(R10, 0x00000000)
T6D44 000:812.471 - 0.006ms returns 0
T6D44 000:812.476 JLINK_WriteReg(R11, 0x00000000)
T6D44 000:812.480 - 0.006ms returns 0
T6D44 000:812.485 JLINK_WriteReg(R12, 0x00000000)
T6D44 000:812.489 - 0.006ms returns 0
T6D44 000:812.494 JLINK_WriteReg(R13 (SP), 0x20001000)
T6D44 000:812.499 - 0.006ms returns 0
T6D44 000:812.504 JLINK_WriteReg(R14, 0x20000001)
T6D44 000:812.508 - 0.006ms returns 0
T6D44 000:812.514 JLINK_WriteReg(R15 (PC), 0x2000010C)
T6D44 000:812.518 - 0.006ms returns 0
T6D44 000:812.523 JLINK_WriteReg(XPSR, 0x01000000)
T6D44 000:812.527 - 0.006ms returns 0
T6D44 000:812.532 JLINK_WriteReg(MSP, 0x20001000)
T6D44 000:812.537 - 0.006ms returns 0
T6D44 000:812.542 JLINK_WriteReg(PSP, 0x20001000)
T6D44 000:812.546 - 0.006ms returns 0
T6D44 000:812.551 JLINK_WriteReg(CFBP, 0x00000000)
T6D44 000:812.555 - 0.006ms returns 0
T6D44 000:812.561 JLINK_SetBPEx(Addr = 0x20000000, Type = 0xFFFFFFF2)
T6D44 000:812.566 - 0.007ms returns 0x00000007
T6D44 000:812.571 JLINK_Go()
T6D44 000:812.579   CPU_ReadMem(4 bytes @ 0xE0001000)
T6D44 000:815.573 - 3.007ms
T6D44 000:815.583 JLINK_IsHalted()
T6D44 000:815.860 - 0.280ms returns FALSE
T6D44 000:815.868 JLINK_HasError()
T6D44 000:821.127 JLINK_IsHalted()
T6D44 000:823.793   CPU_ReadMem(2 bytes @ 0x20000000)
T6D44 000:824.141 - 3.021ms returns TRUE
T6D44 000:824.153 JLINK_ReadReg(R15 (PC))
T6D44 000:824.160 - 0.008ms returns 0x20000000
T6D44 000:824.166 JLINK_ClrBPEx(BPHandle = 0x00000007)
T6D44 000:824.170 - 0.006ms returns 0x00
T6D44 000:824.176 JLINK_ReadReg(R0)
T6D44 000:824.180 - 0.006ms returns 0x00000000
T6D44 000:824.529 JLINK_WriteMem(0x20000184, 0x27C Bytes, ...)
T6D44 000:824.537   Data:  08 BF 70 47 D2 07 28 BF 31 F8 02 3B 48 BF 11 F8 ...
T6D44 000:824.548   CPU_WriteMem(636 bytes @ 0x20000184)
T6D44 000:828.057 - 3.533ms returns 0x27C
T6D44 000:828.068 JLINK_WriteMem(0x20000400, 0x184 Bytes, ...)
T6D44 000:828.072   Data:  D4 E9 01 21 1B F8 05 00 90 47 6D 1C 4D 45 F7 D3 ...
T6D44 000:828.082   CPU_WriteMem(388 bytes @ 0x20000400)
T6D44 000:830.387 - 2.323ms returns 0x184
T6D44 000:830.397 JLINK_HasError()
T6D44 000:830.404 JLINK_WriteReg(R0, 0x08000800)
T6D44 000:830.410 - 0.007ms returns 0
T6D44 000:830.415 JLINK_WriteReg(R1, 0x00000400)
T6D44 000:830.420 - 0.006ms returns 0
T6D44 000:830.425 JLINK_WriteReg(R2, 0x20000184)
T6D44 000:830.429 - 0.006ms returns 0
T6D44 000:830.434 JLINK_WriteReg(R3, 0x00000000)
T6D44 000:830.438 - 0.006ms returns 0
T6D44 000:830.443 JLINK_WriteReg(R4, 0x00000000)
T6D44 000:830.448 - 0.006ms returns 0
T6D44 000:830.453 JLINK_WriteReg(R5, 0x00000000)
T6D44 000:830.457 - 0.006ms returns 0
T6D44 000:830.462 JLINK_WriteReg(R6, 0x00000000)
T6D44 000:830.466 - 0.006ms returns 0
T6D44 000:830.471 JLINK_WriteReg(R7, 0x00000000)
T6D44 000:830.475 - 0.006ms returns 0
T6D44 000:830.480 JLINK_WriteReg(R8, 0x00000000)
T6D44 000:830.484 - 0.006ms returns 0
T6D44 000:830.490 JLINK_WriteReg(R9, 0x20000180)
T6D44 000:830.494 - 0.006ms returns 0
T6D44 000:830.499 JLINK_WriteReg(R10, 0x00000000)
T6D44 000:830.503 - 0.006ms returns 0
T6D44 000:830.508 JLINK_WriteReg(R11, 0x00000000)
T6D44 000:830.512 - 0.006ms returns 0
T6D44 000:830.517 JLINK_WriteReg(R12, 0x00000000)
T6D44 000:830.521 - 0.006ms returns 0
T6D44 000:830.526 JLINK_WriteReg(R13 (SP), 0x20001000)
T6D44 000:830.531 - 0.006ms returns 0
T6D44 000:830.536 JLINK_WriteReg(R14, 0x20000001)
T6D44 000:830.540 - 0.006ms returns 0
T6D44 000:830.545 JLINK_WriteReg(R15 (PC), 0x2000010C)
T6D44 000:830.550 - 0.006ms returns 0
T6D44 000:830.555 JLINK_WriteReg(XPSR, 0x01000000)
T6D44 000:830.559 - 0.006ms returns 0
T6D44 000:830.564 JLINK_WriteReg(MSP, 0x20001000)
T6D44 000:830.568 - 0.006ms returns 0
T6D44 000:830.573 JLINK_WriteReg(PSP, 0x20001000)
T6D44 000:830.577 - 0.006ms returns 0
T6D44 000:830.583 JLINK_WriteReg(CFBP, 0x00000000)
T6D44 000:830.587 - 0.006ms returns 0
T6D44 000:830.592 JLINK_SetBPEx(Addr = 0x20000000, Type = 0xFFFFFFF2)
T6D44 000:830.597 - 0.007ms returns 0x00000008
T6D44 000:830.602 JLINK_Go()
T6D44 000:830.610   CPU_ReadMem(4 bytes @ 0xE0001000)
T6D44 000:833.561 - 2.967ms
T6D44 000:833.575 JLINK_IsHalted()
T6D44 000:833.887 - 0.314ms returns FALSE
T6D44 000:833.894 JLINK_HasError()
T6D44 000:847.491 JLINK_IsHalted()
T6D44 000:850.200   CPU_ReadMem(2 bytes @ 0x20000000)
T6D44 000:850.618 - 3.133ms returns TRUE
T6D44 000:850.630 JLINK_ReadReg(R15 (PC))
T6D44 000:850.637 - 0.009ms returns 0x20000000
T6D44 000:850.642 JLINK_ClrBPEx(BPHandle = 0x00000008)
T6D44 000:850.647 - 0.006ms returns 0x00
T6D44 000:850.653 JLINK_ReadReg(R0)
T6D44 000:850.657 - 0.006ms returns 0x00000000
T6D44 000:851.029 JLINK_WriteMem(0x20000184, 0x27C Bytes, ...)
T6D44 000:851.038   Data:  4F EA 10 1E 4E EA 01 7E 10 EB 0E 00 41 EB 11 11 ...
T6D44 000:851.050   CPU_WriteMem(636 bytes @ 0x20000184)
T6D44 000:854.455 - 3.432ms returns 0x27C
T6D44 000:854.466 JLINK_WriteMem(0x20000400, 0x184 Bytes, ...)
T6D44 000:854.471   Data:  B8 F1 65 0F 81 46 06 D0 B8 F1 66 0F 18 D0 B8 F1 ...
T6D44 000:854.481   CPU_WriteMem(388 bytes @ 0x20000400)
T6D44 000:856.811 - 2.348ms returns 0x184
T6D44 000:856.819 JLINK_HasError()
T6D44 000:856.825 JLINK_WriteReg(R0, 0x08000C00)
T6D44 000:856.831 - 0.007ms returns 0
T6D44 000:856.836 JLINK_WriteReg(R1, 0x00000400)
T6D44 000:856.840 - 0.006ms returns 0
T6D44 000:856.845 JLINK_WriteReg(R2, 0x20000184)
T6D44 000:856.849 - 0.006ms returns 0
T6D44 000:856.854 JLINK_WriteReg(R3, 0x00000000)
T6D44 000:856.859 - 0.006ms returns 0
T6D44 000:856.864 JLINK_WriteReg(R4, 0x00000000)
T6D44 000:856.868 - 0.006ms returns 0
T6D44 000:856.873 JLINK_WriteReg(R5, 0x00000000)
T6D44 000:856.877 - 0.006ms returns 0
T6D44 000:856.882 JLINK_WriteReg(R6, 0x00000000)
T6D44 000:856.886 - 0.006ms returns 0
T6D44 000:856.891 JLINK_WriteReg(R7, 0x00000000)
T6D44 000:856.896 - 0.006ms returns 0
T6D44 000:856.901 JLINK_WriteReg(R8, 0x00000000)
T6D44 000:856.905 - 0.006ms returns 0
T6D44 000:856.910 JLINK_WriteReg(R9, 0x20000180)
T6D44 000:856.914 - 0.006ms returns 0
T6D44 000:856.919 JLINK_WriteReg(R10, 0x00000000)
T6D44 000:856.923 - 0.008ms returns 0
T6D44 000:856.932 JLINK_WriteReg(R11, 0x00000000)
T6D44 000:856.936 - 0.006ms returns 0
T6D44 000:856.941 JLINK_WriteReg(R12, 0x00000000)
T6D44 000:856.945 - 0.006ms returns 0
T6D44 000:856.950 JLINK_WriteReg(R13 (SP), 0x20001000)
T6D44 000:856.955 - 0.006ms returns 0
T6D44 000:856.960 JLINK_WriteReg(R14, 0x20000001)
T6D44 000:856.964 - 0.006ms returns 0
T6D44 000:856.969 JLINK_WriteReg(R15 (PC), 0x2000010C)
T6D44 000:856.974 - 0.006ms returns 0
T6D44 000:856.979 JLINK_WriteReg(XPSR, 0x01000000)
T6D44 000:856.983 - 0.006ms returns 0
T6D44 000:856.988 JLINK_WriteReg(MSP, 0x20001000)
T6D44 000:856.992 - 0.006ms returns 0
T6D44 000:856.997 JLINK_WriteReg(PSP, 0x20001000)
T6D44 000:857.001 - 0.006ms returns 0
T6D44 000:857.006 JLINK_WriteReg(CFBP, 0x00000000)
T6D44 000:857.011 - 0.006ms returns 0
T6D44 000:857.016 JLINK_SetBPEx(Addr = 0x20000000, Type = 0xFFFFFFF2)
T6D44 000:857.021 - 0.007ms returns 0x00000009
T6D44 000:857.027 JLINK_Go()
T6D44 000:857.035   CPU_ReadMem(4 bytes @ 0xE0001000)
T6D44 000:860.066 - 3.043ms
T6D44 000:860.075 JLINK_IsHalted()
T6D44 000:860.370 - 0.298ms returns FALSE
T6D44 000:860.377 JLINK_HasError()
T6D44 000:862.201 JLINK_IsHalted()
T6D44 000:862.559 - 0.361ms returns FALSE
T6D44 000:862.566 JLINK_HasError()
T6D44 000:863.722 JLINK_IsHalted()
T6D44 000:864.048 - 0.329ms returns FALSE
T6D44 000:864.056 JLINK_HasError()
T6D44 000:865.891 JLINK_IsHalted()
T6D44 000:868.481   CPU_ReadMem(2 bytes @ 0x20000000)
T6D44 000:868.773 - 2.885ms returns TRUE
T6D44 000:868.781 JLINK_ReadReg(R15 (PC))
T6D44 000:868.786 - 0.007ms returns 0x20000000
T6D44 000:868.792 JLINK_ClrBPEx(BPHandle = 0x00000009)
T6D44 000:868.796 - 0.006ms returns 0x00
T6D44 000:868.801 JLINK_ReadReg(R0)
T6D44 000:868.806 - 0.006ms returns 0x00000000
T6D44 000:869.143 JLINK_WriteMem(0x20000184, 0x27C Bytes, ...)
T6D44 000:869.150   Data:  FF F7 C6 F9 09 98 28 B1 D4 E9 01 21 90 47 20 6A ...
T6D44 000:869.161   CPU_WriteMem(636 bytes @ 0x20000184)
T6D44 000:872.697 - 3.558ms returns 0x27C
T6D44 000:872.706 JLINK_WriteMem(0x20000400, 0x184 Bytes, ...)
T6D44 000:872.711   Data:  00 2E 02 F8 08 00 08 F1 01 08 04 DA 2D 20 76 42 ...
T6D44 000:872.720   CPU_WriteMem(388 bytes @ 0x20000400)
T6D44 000:875.096 - 2.395ms returns 0x184
T6D44 000:875.107 JLINK_HasError()
T6D44 000:875.114 JLINK_WriteReg(R0, 0x08001000)
T6D44 000:875.121 - 0.010ms returns 0
T6D44 000:875.129 JLINK_WriteReg(R1, 0x00000400)
T6D44 000:875.135 - 0.008ms returns 0
T6D44 000:875.142 JLINK_WriteReg(R2, 0x20000184)
T6D44 000:875.148 - 0.008ms returns 0
T6D44 000:875.155 JLINK_WriteReg(R3, 0x00000000)
T6D44 000:875.161 - 0.008ms returns 0
T6D44 000:875.167 JLINK_WriteReg(R4, 0x00000000)
T6D44 000:875.173 - 0.008ms returns 0
T6D44 000:875.180 JLINK_WriteReg(R5, 0x00000000)
T6D44 000:875.186 - 0.008ms returns 0
T6D44 000:875.193 JLINK_WriteReg(R6, 0x00000000)
T6D44 000:875.199 - 0.008ms returns 0
T6D44 000:875.206 JLINK_WriteReg(R7, 0x00000000)
T6D44 000:875.212 - 0.008ms returns 0
T6D44 000:875.219 JLINK_WriteReg(R8, 0x00000000)
T6D44 000:875.225 - 0.008ms returns 0
T6D44 000:875.231 JLINK_WriteReg(R9, 0x20000180)
T6D44 000:875.237 - 0.008ms returns 0
T6D44 000:875.244 JLINK_WriteReg(R10, 0x00000000)
T6D44 000:875.250 - 0.008ms returns 0
T6D44 000:875.257 JLINK_WriteReg(R11, 0x00000000)
T6D44 000:875.263 - 0.008ms returns 0
T6D44 000:875.270 JLINK_WriteReg(R12, 0x00000000)
T6D44 000:875.276 - 0.008ms returns 0
T6D44 000:875.283 JLINK_WriteReg(R13 (SP), 0x20001000)
T6D44 000:875.289 - 0.009ms returns 0
T6D44 000:875.296 JLINK_WriteReg(R14, 0x20000001)
T6D44 000:875.302 - 0.008ms returns 0
T6D44 000:875.309 JLINK_WriteReg(R15 (PC), 0x2000010C)
T6D44 000:875.315 - 0.008ms returns 0
T6D44 000:875.322 JLINK_WriteReg(XPSR, 0x01000000)
T6D44 000:875.328 - 0.008ms returns 0
T6D44 000:875.335 JLINK_WriteReg(MSP, 0x20001000)
T6D44 000:875.341 - 0.008ms returns 0
T6D44 000:875.348 JLINK_WriteReg(PSP, 0x20001000)
T6D44 000:875.354 - 0.008ms returns 0
T6D44 000:875.361 JLINK_WriteReg(CFBP, 0x00000000)
T6D44 000:875.369 - 0.012ms returns 0
T6D44 000:875.378 JLINK_SetBPEx(Addr = 0x20000000, Type = 0xFFFFFFF2)
T6D44 000:875.385 - 0.009ms returns 0x0000000A
T6D44 000:875.392 JLINK_Go()
T6D44 000:875.403   CPU_ReadMem(4 bytes @ 0xE0001000)
T6D44 000:878.495 - 3.108ms
T6D44 000:878.507 JLINK_IsHalted()
T6D44 000:878.862 - 0.359ms returns FALSE
T6D44 000:878.873 JLINK_HasError()
T6D44 000:880.018 JLINK_IsHalted()
T6D44 000:880.317 - 0.303ms returns FALSE
T6D44 000:880.327 JLINK_HasError()
T6D44 000:882.547 JLINK_IsHalted()
T6D44 000:885.252   CPU_ReadMem(2 bytes @ 0x20000000)
T6D44 000:885.664 - 3.121ms returns TRUE
T6D44 000:885.676 JLINK_ReadReg(R15 (PC))
T6D44 000:885.684 - 0.011ms returns 0x20000000
T6D44 000:885.692 JLINK_ClrBPEx(BPHandle = 0x0000000A)
T6D44 000:885.698 - 0.009ms returns 0x00
T6D44 000:885.706 JLINK_ReadReg(R0)
T6D44 000:885.712 - 0.009ms returns 0x00000000
T6D44 000:886.165 JLINK_WriteMem(0x20000184, 0x27C Bytes, ...)
T6D44 000:886.176   Data:  05 00 69 46 53 46 20 F0 07 00 85 46 18 B0 20 B5 ...
T6D44 000:886.191   CPU_WriteMem(636 bytes @ 0x20000184)
T6D44 000:889.700 - 3.540ms returns 0x27C
T6D44 000:889.716 JLINK_WriteMem(0x20000400, 0x184 Bytes, ...)
T6D44 000:889.724   Data:  43 EA 51 51 4F EA 1C 50 18 BF 00 F5 F0 40 4F EA ...
T6D44 000:889.737   CPU_WriteMem(388 bytes @ 0x20000400)
T6D44 000:892.120 - 2.408ms returns 0x184
T6D44 000:892.134 JLINK_HasError()
T6D44 000:892.193 JLINK_WriteReg(R0, 0x08001400)
T6D44 000:892.204 - 0.014ms returns 0
T6D44 000:892.214 JLINK_WriteReg(R1, 0x00000400)
T6D44 000:892.222 - 0.011ms returns 0
T6D44 000:892.231 JLINK_WriteReg(R2, 0x20000184)
T6D44 000:892.239 - 0.011ms returns 0
T6D44 000:892.249 JLINK_WriteReg(R3, 0x00000000)
T6D44 000:892.256 - 0.011ms returns 0
T6D44 000:892.266 JLINK_WriteReg(R4, 0x00000000)
T6D44 000:892.274 - 0.011ms returns 0
T6D44 000:892.283 JLINK_WriteReg(R5, 0x00000000)
T6D44 000:892.290 - 0.011ms returns 0
T6D44 000:892.300 JLINK_WriteReg(R6, 0x00000000)
T6D44 000:892.307 - 0.011ms returns 0
T6D44 000:892.317 JLINK_WriteReg(R7, 0x00000000)
T6D44 000:892.324 - 0.011ms returns 0
T6D44 000:892.334 JLINK_WriteReg(R8, 0x00000000)
T6D44 000:892.341 - 0.011ms returns 0
T6D44 000:892.351 JLINK_WriteReg(R9, 0x20000180)
T6D44 000:892.358 - 0.011ms returns 0
T6D44 000:892.368 JLINK_WriteReg(R10, 0x00000000)
T6D44 000:892.375 - 0.011ms returns 0
T6D44 000:892.385 JLINK_WriteReg(R11, 0x00000000)
T6D44 000:892.392 - 0.011ms returns 0
T6D44 000:892.402 JLINK_WriteReg(R12, 0x00000000)
T6D44 000:892.410 - 0.011ms returns 0
T6D44 000:892.419 JLINK_WriteReg(R13 (SP), 0x20001000)
T6D44 000:892.427 - 0.012ms returns 0
T6D44 000:892.436 JLINK_WriteReg(R14, 0x20000001)
T6D44 000:892.444 - 0.011ms returns 0
T6D44 000:892.453 JLINK_WriteReg(R15 (PC), 0x2000010C)
T6D44 000:892.461 - 0.011ms returns 0
T6D44 000:892.470 JLINK_WriteReg(XPSR, 0x01000000)
T6D44 000:892.478 - 0.011ms returns 0
T6D44 000:892.487 JLINK_WriteReg(MSP, 0x20001000)
T6D44 000:892.495 - 0.011ms returns 0
T6D44 000:892.504 JLINK_WriteReg(PSP, 0x20001000)
T6D44 000:892.512 - 0.011ms returns 0
T6D44 000:892.521 JLINK_WriteReg(CFBP, 0x00000000)
T6D44 000:892.529 - 0.011ms returns 0
T6D44 000:892.539 JLINK_SetBPEx(Addr = 0x20000000, Type = 0xFFFFFFF2)
T6D44 000:892.548 - 0.013ms returns 0x0000000B
T6D44 000:892.558 JLINK_Go()
T6D44 000:892.572   CPU_ReadMem(4 bytes @ 0xE0001000)
T6D44 000:895.795 - 3.246ms
T6D44 000:895.813 JLINK_IsHalted()
T6D44 000:896.171 - 0.362ms returns FALSE
T6D44 000:896.183 JLINK_HasError()
T6D44 000:898.077 JLINK_IsHalted()
T6D44 000:898.470 - 0.397ms returns FALSE
T6D44 000:898.482 JLINK_HasError()
T6D44 000:900.128 JLINK_IsHalted()
T6D44 000:903.104   CPU_ReadMem(2 bytes @ 0x20000000)
T6D44 000:903.443 - 3.322ms returns TRUE
T6D44 000:903.458 JLINK_ReadReg(R15 (PC))
T6D44 000:903.469 - 0.014ms returns 0x20000000
T6D44 000:903.479 JLINK_ClrBPEx(BPHandle = 0x0000000B)
T6D44 000:903.487 - 0.011ms returns 0x00
T6D44 000:903.496 JLINK_ReadReg(R0)
T6D44 000:903.504 - 0.014ms returns 0x00000000
T6D44 000:904.054 JLINK_WriteMem(0x20000184, 0x27C Bytes, ...)
T6D44 000:904.066   Data:  B2 EB 07 42 61 EB 17 41 4F EA 0C 44 4F EA 91 07 ...
T6D44 000:904.084   CPU_WriteMem(636 bytes @ 0x20000184)
T6D44 000:907.613 - 3.564ms returns 0x27C
T6D44 000:907.625 JLINK_WriteMem(0x20000400, 0x184 Bytes, ...)
T6D44 000:907.632   Data:  43 43 43 42 42 42 42 41 41 41 00 2B 9C 46 30 D4 ...
T6D44 000:907.651   CPU_WriteMem(388 bytes @ 0x20000400)
T6D44 000:910.105 - 2.486ms returns 0x184
T6D44 000:910.119 JLINK_HasError()
T6D44 000:910.131 JLINK_WriteReg(R0, 0x08001800)
T6D44 000:910.143 - 0.015ms returns 0
T6D44 000:910.154 JLINK_WriteReg(R1, 0x00000400)
T6D44 000:910.163 - 0.013ms returns 0
T6D44 000:910.174 JLINK_WriteReg(R2, 0x20000184)
T6D44 000:910.184 - 0.013ms returns 0
